T50E4 000:414.851   SEGGER J-Link V8.30 Log File
T50E4 000:414.954   DLL Compiled: Apr 30 2025 12:01:29
T50E4 000:414.959   Logging started @ 2026-03-28 06:24
T50E4 000:414.963   Process: D:\MDK5.34\UV4\UV4.exe
T50E4 000:414.970 - 414.967ms 
T50E4 000:414.978 JLINK_SetWarnOutHandler(...)
T50E4 000:414.982 - 0.005ms 
T50E4 000:414.988 JLINK_OpenEx(...)
T50E4 000:418.986   Firmware: J-Link ARM-OB STM32 compiled Aug 22 2012 19:52:04
T50E4 000:419.659   Firmware: J-Link ARM-OB STM32 compiled Aug 22 2012 19:52:04
T50E4 000:421.233   Hardware: V7.00
T50E4 000:421.244   S/N: 20090928
T50E4 000:421.250   OEM: SEGGER
T50E4 000:421.256   Feature(s): RDI,FlashDL,FlashBP,JFlash,GDB
T50E4 000:421.515   Bootloader: (FW returned invalid version)
T50E4 000:422.118   TELNET listener socket opened on port 19021
T50E4 000:422.267   WEBSRV WEBSRV_Init(): Starting webserver thread(s)
T50E4 000:422.339   WEBSRV Webserver running on local port 19080
T50E4 000:422.440   Looking for J-Link GUI Server exe at: D:\MDK5.34\ARM\Segger\JLinkGUIServer.exe
T50E4 000:422.485   Looking for J-Link GUI Server exe at: E:\Renesas\JLink_V830\JLinkGUIServer.exe
T50E4 000:422.495   Forking J-Link GUI Server: E:\Renesas\JLink_V830\JLinkGUIServer.exe
T50E4 000:774.622   J-Link GUI Server info: "J-Link GUI server V8.30 "
T50E4 000:784.564 - 369.569ms returns "O.K."
T50E4 000:784.588 JLINK_GetEmuCaps()
T50E4 000:784.595 - 0.005ms returns 0x88EA5833
T50E4 000:784.601 JLINK_TIF_GetAvailable(...)
T50E4 000:784.823 - 0.222ms 
T50E4 000:784.833 JLINK_SetErrorOutHandler(...)
T50E4 000:784.837 - 0.004ms 
T50E4 000:784.855 JLINK_ExecCommand("ProjectFile = "E:\Renesas\projects\handsync_ctrller_keil\JLinkSettings.ini"", ...). 
T50E4 000:810.508   Ref file found at: D:\MDK5.34\ARM\Segger\JLinkDevices.ref
T50E4 000:810.615   REF file references invalid XML file: E:\Renesas\JLink_V830\JLinkDevices.xml
T50E4 000:811.689 - 26.835ms returns 0x00
T50E4 000:816.333 JLINK_ExecCommand("Device = R7FA4M1AB", ...). 
T50E4 000:821.812   Device "R7FA4M1AB" selected.
T50E4 000:822.074 - 5.724ms returns 0x00
T50E4 000:822.084 JLINK_ExecCommand("DisableConnectionTimeout", ...). 
T50E4 000:822.094   ERROR: Unknown command
T50E4 000:822.100 - 0.010ms returns 0x01
T50E4 000:822.106 JLINK_GetHardwareVersion()
T50E4 000:822.110 - 0.004ms returns 70000
T50E4 000:822.115 JLINK_GetDLLVersion()
T50E4 000:822.119 - 0.003ms returns 83000
T50E4 000:822.125 JLINK_GetOEMString(...)
T50E4 000:822.131 JLINK_GetFirmwareString(...)
T50E4 000:822.135 - 0.005ms 
T50E4 000:828.785 JLINK_GetDLLVersion()
T50E4 000:828.798 - 0.012ms returns 83000
T50E4 000:828.805 JLINK_GetCompileDateTime()
T50E4 000:828.809 - 0.004ms 
T50E4 000:832.596 JLINK_GetFirmwareString(...)
T50E4 000:832.613 - 0.016ms 
T50E4 000:834.721 JLINK_GetHardwareVersion()
T50E4 000:834.733 - 0.012ms returns 70000
T50E4 000:836.911 JLINK_GetSN()
T50E4 000:836.925 - 0.013ms returns 20090928
T50E4 000:838.943 JLINK_GetOEMString(...)
T50E4 000:845.214 JLINK_TIF_Select(JLINKARM_TIF_SWD)
T50E4 000:845.674 - 0.466ms returns 0x00
T50E4 000:845.683 JLINK_HasError()
T50E4 000:845.692 JLINK_SetSpeed(25000)
T50E4 000:845.792 - 0.100ms 
T50E4 000:845.799 JLINK_GetId()
T50E4 000:847.997   InitTarget() start
T50E4 000:848.013    J-Link Script File: Executing InitTarget()
T50E4 000:850.150   Identifying target device...
T50E4 000:852.134   SWD selected. Executing JTAG -> SWD switching sequence...
T50E4 000:855.607   Initializing DAP...
T50E4 000:859.686   DAP initialized successfully.
T50E4 000:864.935   Low power mode detected. Waking device from low power mode.
T50E4 000:872.904   InitTarget() end - Took 22.7ms
T50E4 000:875.639   Found SW-DP with ID 0x5BA02477
T50E4 000:879.188   Old FW that does not support reading DPIDR via DAP jobs
T50E4 000:884.451   DPv0 detected
T50E4 000:886.437   CoreSight SoC-400 or earlier
T50E4 000:888.545   Scanning AP map to find all available APs
T50E4 000:895.013   AP[2]: Stopped AP scan as end of AP map has been reached
T50E4 000:897.409   AP[0]: AHB-AP (IDR: 0x24770011, ADDR: 0x00000000)
T50E4 000:899.763   AP[1]: APB-AP (IDR: 0x44770002, ADDR: 0x01000000)
T50E4 000:901.801   Iterating through AP map to find AHB-AP to use
T50E4 000:908.415   AP[0]: Core found
T50E4 000:910.505   AP[0]: AHB-AP ROM base: 0xE00FF000
T50E4 000:914.326   CPUID register: 0x410FC241. Implementer code: 0x41 (ARM)
T50E4 000:916.409   Found Cortex-M4 r0p1, Little endian.
T50E4 000:916.695   -- Max. mem block: 0x00002C18
T50E4 000:917.089   CPU_ReadMem(4 bytes @ 0xE000EDF0)
T50E4 000:917.485   CPU_WriteMem(4 bytes @ 0xE000EDF0)
T50E4 000:917.995   CPU_ReadMem(4 bytes @ 0xE0002000)
T50E4 000:921.307   FPUnit: 6 code (BP) slots and 2 literal slots
T50E4 000:921.325   CPU_ReadMem(4 bytes @ 0xE000EDFC)
T50E4 000:921.727   CPU_WriteMem(4 bytes @ 0xE000EDFC)
T50E4 000:922.240   CPU_ReadMem(4 bytes @ 0xE0001000)
T50E4 000:922.893   CPU_WriteMem(4 bytes @ 0xE0001000)
T50E4 000:923.532   CPU_ReadMem(4 bytes @ 0xE000ED88)
T50E4 000:923.979   CPU_WriteMem(4 bytes @ 0xE000ED88)
T50E4 000:924.399   CPU_ReadMem(4 bytes @ 0xE000ED88)
T50E4 000:924.807   CPU_WriteMem(4 bytes @ 0xE000ED88)
T50E4 000:927.429   CoreSight components:
T50E4 000:929.513   ROMTbl[0] @ E00FF000
T50E4 000:929.531   CPU_ReadMem(64 bytes @ 0xE00FF000)
T50E4 000:930.552   CPU_ReadMem(32 bytes @ 0xE000EFE0)
T50E4 000:933.449   [0][0]: E000E000 CID B105E00D PID 000BB00C SCS-M7
T50E4 000:933.468   CPU_ReadMem(32 bytes @ 0xE0001FE0)
T50E4 000:936.234   [0][1]: E0001000 CID B105E00D PID 003BB002 DWT
T50E4 000:936.251   CPU_ReadMem(32 bytes @ 0xE0002FE0)
T50E4 000:939.426   [0][2]: E0002000 CID B105E00D PID 002BB003 FPB
T50E4 000:939.444   CPU_ReadMem(32 bytes @ 0xE0000FE0)
T50E4 000:942.313   [0][3]: E0000000 CID B105E00D PID 003BB001 ITM
T50E4 000:942.332   CPU_ReadMem(32 bytes @ 0xE0040FE0)
T50E4 000:945.381   [0][4]: E0040000 CID B105900D PID 000BB9A1 TPIU
T50E4 000:945.400   CPU_ReadMem(32 bytes @ 0xE0041FE0)
T50E4 000:948.174   [0][5]: E0041000 CID B105900D PID 000BB925 ETM
T50E4 000:948.192   CPU_ReadMem(32 bytes @ 0xE0042FE0)
T50E4 000:950.938   [0][6]: E0042000 CID B105900D PID 002BB908 CSTF
T50E4 000:950.955   CPU_ReadMem(32 bytes @ 0xE0043FE0)
T50E4 000:955.077   [0][7]: E0043000 CID B105900D PID 001BB961 TMC
T50E4 000:955.094   CPU_ReadMem(32 bytes @ 0xE0044FE0)
T50E4 000:959.342   [0][8]: E0044000 CID B105F00D PID 001BB101 TSG
T50E4 000:959.721 - 113.921ms returns 0x5BA02477
T50E4 000:959.735 JLINK_GetDLLVersion()
T50E4 000:959.740 - 0.004ms returns 83000
T50E4 000:959.746 JLINK_CORE_GetFound()
T50E4 000:959.750 - 0.004ms returns 0xE0000FF
T50E4 000:959.756 JLINK_GetDebugInfo(0x100 = JLINKARM_ROM_TABLE_ADDR_INDEX)
T50E4 000:959.761   Value=0xE00FF000
T50E4 000:959.767 - 0.010ms returns 0
T50E4 000:961.869 JLINK_GetDebugInfo(0x100 = JLINKARM_ROM_TABLE_ADDR_INDEX)
T50E4 000:961.882   Value=0xE00FF000
T50E4 000:961.889 - 0.019ms returns 0
T50E4 000:961.895 JLINK_GetDebugInfo(0x101 = JLINKARM_DEBUG_INFO_ETM_ADDR_INDEX)
T50E4 000:961.899   Value=0xE0041000
T50E4 000:961.905 - 0.010ms returns 0
T50E4 000:961.911 JLINK_ReadMemEx(0xE0041FD0, 0x20 Bytes, Flags = 0x02000004)
T50E4 000:961.929   CPU_ReadMem(32 bytes @ 0xE0041FD0)
T50E4 000:962.670   Data:  04 00 00 00 00 00 00 00 00 00 00 00 00 00 00 00 ...
T50E4 000:962.678 - 0.768ms returns 32 (0x20)
T50E4 000:962.686 JLINK_GetDebugInfo(0x102 = JLINKARM_DEBUG_INFO_MTB_ADDR_INDEX)
T50E4 000:962.690   Value=0x00000000
T50E4 000:962.696 - 0.010ms returns 0
T50E4 000:962.702 JLINK_GetDebugInfo(0x103 = JLINKARM_DEBUG_INFO_TPIU_ADDR_INDEX)
T50E4 000:962.706   Value=0xE0040000
T50E4 000:962.712 - 0.010ms returns 0
T50E4 000:962.717 JLINK_GetDebugInfo(0x104 = JLINKARM_DEBUG_INFO_ITM_ADDR_INDEX)
T50E4 000:962.721   Value=0xE0000000
T50E4 000:962.727 - 0.010ms returns 0
T50E4 000:962.732 JLINK_GetDebugInfo(0x105 = JLINKARM_DEBUG_INFO_DWT_ADDR_INDEX)
T50E4 000:962.736   Value=0xE0001000
T50E4 000:962.742 - 0.010ms returns 0
T50E4 000:962.747 JLINK_GetDebugInfo(0x106 = JLINKARM_DEBUG_INFO_FPB_ADDR_INDEX)
T50E4 000:962.751   Value=0xE0002000
T50E4 000:962.757 - 0.010ms returns 0
T50E4 000:962.768 JLINK_GetDebugInfo(0x107 = JLINKARM_DEBUG_INFO_NVIC_ADDR_INDEX)
T50E4 000:962.772   Value=0xE000E000
T50E4 000:962.778 - 0.010ms returns 0
T50E4 000:962.783 JLINK_GetDebugInfo(0x10C = JLINKARM_DEBUG_INFO_DBG_ADDR_INDEX)
T50E4 000:962.787   Value=0xE000EDF0
T50E4 000:962.794 - 0.010ms returns 0
T50E4 000:962.799 JLINK_GetDebugInfo(0x01 = Unknown)
T50E4 000:962.803   Value=0x00000001
T50E4 000:962.809 - 0.010ms returns 0
T50E4 000:962.814 JLINK_ReadMemU32(0xE000ED00, 0x1 Items)
T50E4 000:962.821   CPU_ReadMem(4 bytes @ 0xE000ED00)
T50E4 000:963.225   Data:  41 C2 0F 41
T50E4 000:963.232   Debug reg: CPUID
T50E4 000:963.238 - 0.423ms returns 1 (0x1)
T50E4 000:963.245 JLINK_GetDebugInfo(0x10F = JLINKARM_DEBUG_INFO_HAS_CORTEX_M_SECURITY_EXT_INDEX)
T50E4 000:963.249   Value=0x00000000
T50E4 000:963.255 - 0.010ms returns 0
T50E4 000:963.261 JLINK_HasError()
T50E4 000:963.267 JLINK_SetResetType(JLINKARM_CM3_RESET_TYPE_NORMAL)
T50E4 000:963.272 - 0.004ms returns JLINKARM_CM3_RESET_TYPE_NORMAL
T50E4 000:963.277 JLINK_Reset()
T50E4 000:963.287   JLINK_GetResetTypeDesc
T50E4 000:963.291   - 0.004ms 
T50E4 000:965.391   Reset type: NORMAL (https://wiki.segger.com/J-Link_Reset_Strategies)
T50E4 000:965.408   CPU is running
T50E4 000:965.417   CPU_WriteMem(4 bytes @ 0xE000EDF0)
T50E4 000:965.839   CPU is running
T50E4 000:965.847   CPU_WriteMem(4 bytes @ 0xE000EDFC)
T50E4 000:968.390   Reset: Halt core after reset via DEMCR.VC_CORERESET.
T50E4 000:972.578   Reset: Reset device via AIRCR.SYSRESETREQ.
T50E4 000:972.596   CPU is running
T50E4 000:972.604   CPU_WriteMem(4 bytes @ 0xE000ED0C)
T50E4 001:026.745   CPU_ReadMem(4 bytes @ 0xE000EDF0)
T50E4 001:027.167   CPU_ReadMem(4 bytes @ 0xE000EDF0)
T50E4 001:031.257   CPU_WriteMem(4 bytes @ 0xE000EDFC)
T50E4 001:036.898   CPU_ReadMem(4 bytes @ 0xE000EDF0)
T50E4 001:040.905   CPU_WriteMem(4 bytes @ 0xE0002000)
T50E4 001:041.367   CPU_ReadMem(4 bytes @ 0xE000EDFC)
T50E4 001:041.865   CPU_ReadMem(4 bytes @ 0xE0001000)
T50E4 001:042.267 - 78.989ms 
T50E4 001:042.301 JLINK_Halt()
T50E4 001:042.324 - 0.021ms returns 0x00
T50E4 001:042.393 JLINK_ReadMemU32(0xE000EDF0, 0x1 Items)
T50E4 001:042.403   CPU_ReadMem(4 bytes @ 0xE000EDF0)
T50E4 001:042.812   Data:  03 00 03 00
T50E4 001:042.838   Debug reg: DHCSR
T50E4 001:042.844 - 0.451ms returns 1 (0x1)
T50E4 001:042.854 JLINK_WriteU32(0xE000EDF0, 0xA05F0003)
T50E4 001:042.859   Debug reg: DHCSR
T50E4 001:043.103   CPU_WriteMem(4 bytes @ 0xE000EDF0)
T50E4 001:043.555 - 0.700ms returns 0 (0x00000000)
T50E4 001:043.585 JLINK_WriteU32(0xE000EDFC, 0x01000000)
T50E4 001:043.589   Debug reg: DEMCR
T50E4 001:043.596   CPU_WriteMem(4 bytes @ 0xE000EDFC)
T50E4 001:044.010 - 0.424ms returns 0 (0x00000000)
T50E4 001:054.181 JLINK_GetHWStatus(...)
T50E4 001:054.351 - 0.170ms returns 0
T50E4 001:060.790 JLINK_GetNumBPUnits(Type = 0xFFFFFF00)
T50E4 001:060.816 - 0.025ms returns 0x06
T50E4 001:060.822 JLINK_GetNumBPUnits(Type = 0xF0)
T50E4 001:060.828 - 0.005ms returns 0x2000
T50E4 001:060.834 JLINK_GetNumWPUnits()
T50E4 001:060.838 - 0.004ms returns 4
T50E4 001:069.498 JLINK_GetSpeed()
T50E4 001:069.521 - 0.022ms returns 4000
T50E4 001:073.617 JLINK_ReadMemU32(0xE000E004, 0x1 Items)
T50E4 001:073.647   CPU_ReadMem(4 bytes @ 0xE000E004)
T50E4 001:074.182   Data:  00 00 00 00
T50E4 001:074.190 - 0.573ms returns 1 (0x1)
T50E4 001:074.197 JLINK_ReadMemU32(0xE000E004, 0x1 Items)
T50E4 001:074.204   CPU_ReadMem(4 bytes @ 0xE000E004)
T50E4 001:074.831   Data:  00 00 00 00
T50E4 001:074.850 - 0.652ms returns 1 (0x1)
T50E4 001:074.859 JLINK_WriteMemEx(0xE0001000, 0x0000001C Bytes, Flags = 0x02000004)
T50E4 001:074.864   Data:  01 00 00 00 00 00 00 00 00 00 00 00 00 00 00 00 ...
T50E4 001:074.878   CPU_WriteMem(28 bytes @ 0xE0001000)
T50E4 001:075.592 - 0.733ms returns 0x1C
T50E4 001:075.612 JLINK_Halt()
T50E4 001:075.617 - 0.004ms returns 0x00
T50E4 001:075.623 JLINK_IsHalted()
T50E4 001:075.628 - 0.005ms returns TRUE
T50E4 001:091.316 JLINK_WriteMem(0x20000000, 0xEF8 Bytes, ...)
T50E4 001:091.333   Data:  00 BE 0A E0 0D 78 2D 06 68 40 08 24 40 00 00 D3 ...
T50E4 001:091.596   CPU_WriteMem(3832 bytes @ 0x20000000)
T50E4 001:135.169 - 43.852ms returns 0xEF8
T50E4 001:135.274 JLINK_HasError()
T50E4 001:135.282 JLINK_WriteReg(R0, 0x00000000)
T50E4 001:135.291 - 0.008ms returns 0
T50E4 001:135.336 JLINK_WriteReg(R1, 0x00B71B00)
T50E4 001:135.341 - 0.005ms returns 0
T50E4 001:135.346 JLINK_WriteReg(R2, 0x00000001)
T50E4 001:135.350 - 0.004ms returns 0
T50E4 001:135.355 JLINK_WriteReg(R3, 0x00000000)
T50E4 001:135.359 - 0.004ms returns 0
T50E4 001:135.364 JLINK_WriteReg(R4, 0x00000000)
T50E4 001:135.369 - 0.004ms returns 0
T50E4 001:135.374 JLINK_WriteReg(R5, 0x00000000)
T50E4 001:135.378 - 0.004ms returns 0
T50E4 001:135.383 JLINK_WriteReg(R6, 0x00000000)
T50E4 001:135.387 - 0.004ms returns 0
T50E4 001:135.392 JLINK_WriteReg(R7, 0x00000000)
T50E4 001:135.397 - 0.004ms returns 0
T50E4 001:135.402 JLINK_WriteReg(R8, 0x00000000)
T50E4 001:135.406 - 0.004ms returns 0
T50E4 001:135.411 JLINK_WriteReg(R9, 0x20000EF4)
T50E4 001:135.415 - 0.004ms returns 0
T50E4 001:135.420 JLINK_WriteReg(R10, 0x00000000)
T50E4 001:135.424 - 0.004ms returns 0
T50E4 001:135.429 JLINK_WriteReg(R11, 0x00000000)
T50E4 001:135.434 - 0.004ms returns 0
T50E4 001:135.439 JLINK_WriteReg(R12, 0x00000000)
T50E4 001:135.443 - 0.004ms returns 0
T50E4 001:135.448 JLINK_WriteReg(R13 (SP), 0x20002000)
T50E4 001:135.453 - 0.004ms returns 0
T50E4 001:135.458 JLINK_WriteReg(R14, 0x20000001)
T50E4 001:135.462 - 0.004ms returns 0
T50E4 001:135.475 JLINK_WriteReg(R15 (PC), 0x200002AC)
T50E4 001:135.479 - 0.012ms returns 0
T50E4 001:135.485 JLINK_WriteReg(XPSR, 0x01000000)
T50E4 001:135.489 - 0.004ms returns 0
T50E4 001:135.494 JLINK_WriteReg(MSP, 0x20002000)
T50E4 001:135.498 - 0.004ms returns 0
T50E4 001:135.503 JLINK_WriteReg(PSP, 0x20002000)
T50E4 001:135.507 - 0.004ms returns 0
T50E4 001:135.512 JLINK_WriteReg(CFBP, 0x00000000)
T50E4 001:135.516 - 0.004ms returns 0
T50E4 001:135.522 JLINK_SetBPEx(Addr = 0x20000000, Type = 0xFFFFFFF2)
T50E4 001:135.532   CPU_ReadMem(2 bytes @ 0x20000000)
T50E4 001:136.137 - 0.614ms returns 0x00000001
T50E4 001:136.143 JLINK_Go()
T50E4 001:136.149   CPU_WriteMem(2 bytes @ 0x20000000)
T50E4 001:136.799   CPU_ReadMem(4 bytes @ 0xE0001000)
T50E4 001:137.294   CPU_WriteMem(4 bytes @ 0xE0002008)
T50E4 001:137.326   CPU_WriteMem(4 bytes @ 0xE000200C)
T50E4 001:137.349   CPU_WriteMem(4 bytes @ 0xE0002010)
T50E4 001:137.355   CPU_WriteMem(4 bytes @ 0xE0002014)
T50E4 001:137.361   CPU_WriteMem(4 bytes @ 0xE0002018)
T50E4 001:137.367   CPU_WriteMem(4 bytes @ 0xE000201C)
T50E4 001:139.723   CPU_WriteMem(4 bytes @ 0xE0001004)
T50E4 001:145.835   Memory map 'after startup completion point' is active
T50E4 001:145.856 - 9.711ms 
T50E4 001:145.865 JLINK_IsHalted()
T50E4 001:149.420   CPU_ReadMem(2 bytes @ 0x20000000)
T50E4 001:149.934 - 4.067ms returns TRUE
T50E4 001:149.957 JLINK_ReadReg(R15 (PC))
T50E4 001:149.964 - 0.006ms returns 0x20000000
T50E4 001:149.969 JLINK_ClrBPEx(BPHandle = 0x00000001)
T50E4 001:149.974 - 0.004ms returns 0x00
T50E4 001:149.979 JLINK_ReadReg(R0)
T50E4 001:149.984 - 0.004ms returns 0x00000000
T50E4 001:150.337 JLINK_HasError()
T50E4 001:150.348 JLINK_WriteReg(R0, 0x00000000)
T50E4 001:150.353 - 0.005ms returns 0
T50E4 001:150.358 JLINK_WriteReg(R1, 0x00000800)
T50E4 001:150.363 - 0.004ms returns 0
T50E4 001:150.368 JLINK_WriteReg(R2, 0x000000FF)
T50E4 001:150.372 - 0.004ms returns 0
T50E4 001:150.377 JLINK_WriteReg(R3, 0x00000000)
T50E4 001:150.382 - 0.004ms returns 0
T50E4 001:150.387 JLINK_WriteReg(R4, 0x00000000)
T50E4 001:150.391 - 0.004ms returns 0
T50E4 001:150.396 JLINK_WriteReg(R5, 0x00000000)
T50E4 001:150.400 - 0.004ms returns 0
T50E4 001:150.405 JLINK_WriteReg(R6, 0x00000000)
T50E4 001:150.409 - 0.004ms returns 0
T50E4 001:150.414 JLINK_WriteReg(R7, 0x00000000)
T50E4 001:150.419 - 0.004ms returns 0
T50E4 001:150.424 JLINK_WriteReg(R8, 0x00000000)
T50E4 001:150.428 - 0.004ms returns 0
T50E4 001:150.479 JLINK_WriteReg(R9, 0x20000EF4)
T50E4 001:150.486 - 0.007ms returns 0
T50E4 001:150.492 JLINK_WriteReg(R10, 0x00000000)
T50E4 001:150.496 - 0.004ms returns 0
T50E4 001:150.501 JLINK_WriteReg(R11, 0x00000000)
T50E4 001:150.505 - 0.004ms returns 0
T50E4 001:150.510 JLINK_WriteReg(R12, 0x00000000)
T50E4 001:150.514 - 0.004ms returns 0
T50E4 001:150.519 JLINK_WriteReg(R13 (SP), 0x20002000)
T50E4 001:150.524 - 0.004ms returns 0
T50E4 001:150.529 JLINK_WriteReg(R14, 0x20000001)
T50E4 001:150.533 - 0.004ms returns 0
T50E4 001:150.538 JLINK_WriteReg(R15 (PC), 0x200000C4)
T50E4 001:150.543 - 0.004ms returns 0
T50E4 001:150.548 JLINK_WriteReg(XPSR, 0x01000000)
T50E4 001:150.552 - 0.004ms returns 0
T50E4 001:150.557 JLINK_WriteReg(MSP, 0x20002000)
T50E4 001:150.561 - 0.004ms returns 0
T50E4 001:150.566 JLINK_WriteReg(PSP, 0x20002000)
T50E4 001:150.570 - 0.004ms returns 0
T50E4 001:150.575 JLINK_WriteReg(CFBP, 0x00000000)
T50E4 001:150.580 - 0.004ms returns 0
T50E4 001:150.585 JLINK_SetBPEx(Addr = 0x20000000, Type = 0xFFFFFFF2)
T50E4 001:150.590 - 0.005ms returns 0x00000002
T50E4 001:150.596 JLINK_Go()
T50E4 001:150.606   CPU_ReadMem(4 bytes @ 0xE0001000)
T50E4 001:154.356 - 3.760ms 
T50E4 001:154.373 JLINK_IsHalted()
T50E4 001:154.797 - 0.421ms returns FALSE
T50E4 001:154.830 JLINK_HasError()
T50E4 001:170.879 JLINK_IsHalted()
T50E4 001:174.377   CPU_ReadMem(2 bytes @ 0x20000000)
T50E4 001:174.828 - 3.950ms returns TRUE
T50E4 001:174.844 JLINK_ReadReg(R15 (PC))
T50E4 001:174.851 - 0.007ms returns 0x20000000
T50E4 001:174.868 JLINK_ClrBPEx(BPHandle = 0x00000002)
T50E4 001:174.882 - 0.016ms returns 0x00
T50E4 001:174.888 JLINK_ReadReg(R0)
T50E4 001:174.892 - 0.004ms returns 0x00000001
T50E4 001:174.897 JLINK_HasError()
T50E4 001:174.903 JLINK_WriteReg(R0, 0x00000000)
T50E4 001:174.907 - 0.004ms returns 0
T50E4 001:174.912 JLINK_WriteReg(R1, 0x00000800)
T50E4 001:174.916 - 0.004ms returns 0
T50E4 001:174.920 JLINK_WriteReg(R2, 0x000000FF)
T50E4 001:174.924 - 0.003ms returns 0
T50E4 001:174.928 JLINK_WriteReg(R3, 0x00000000)
T50E4 001:174.932 - 0.003ms returns 0
T50E4 001:174.937 JLINK_WriteReg(R4, 0x00000000)
T50E4 001:174.941 - 0.003ms returns 0
T50E4 001:174.945 JLINK_WriteReg(R5, 0x00000000)
T50E4 001:174.949 - 0.003ms returns 0
T50E4 001:174.954 JLINK_WriteReg(R6, 0x00000000)
T50E4 001:174.958 - 0.003ms returns 0
T50E4 001:174.962 JLINK_WriteReg(R7, 0x00000000)
T50E4 001:174.966 - 0.003ms returns 0
T50E4 001:174.970 JLINK_WriteReg(R8, 0x00000000)
T50E4 001:174.974 - 0.003ms returns 0
T50E4 001:174.979 JLINK_WriteReg(R9, 0x20000EF4)
T50E4 001:174.983 - 0.004ms returns 0
T50E4 001:174.987 JLINK_WriteReg(R10, 0x00000000)
T50E4 001:174.991 - 0.003ms returns 0
T50E4 001:174.996 JLINK_WriteReg(R11, 0x00000000)
T50E4 001:174.999 - 0.003ms returns 0
T50E4 001:175.004 JLINK_WriteReg(R12, 0x00000000)
T50E4 001:175.008 - 0.003ms returns 0
T50E4 001:175.012 JLINK_WriteReg(R13 (SP), 0x20002000)
T50E4 001:175.016 - 0.004ms returns 0
T50E4 001:175.021 JLINK_WriteReg(R14, 0x20000001)
T50E4 001:175.025 - 0.003ms returns 0
T50E4 001:175.029 JLINK_WriteReg(R15 (PC), 0x20000208)
T50E4 001:175.033 - 0.003ms returns 0
T50E4 001:175.038 JLINK_WriteReg(XPSR, 0x01000000)
T50E4 001:175.042 - 0.003ms returns 0
T50E4 001:175.046 JLINK_WriteReg(MSP, 0x20002000)
T50E4 001:175.050 - 0.003ms returns 0
T50E4 001:175.055 JLINK_WriteReg(PSP, 0x20002000)
T50E4 001:175.058 - 0.003ms returns 0
T50E4 001:175.063 JLINK_WriteReg(CFBP, 0x00000000)
T50E4 001:175.067 - 0.003ms returns 0
T50E4 001:175.072 JLINK_SetBPEx(Addr = 0x20000000, Type = 0xFFFFFFF2)
T50E4 001:175.076 - 0.004ms returns 0x00000003
T50E4 001:175.081 JLINK_Go()
T50E4 001:175.091   CPU_ReadMem(4 bytes @ 0xE0001000)
T50E4 001:178.620 - 3.536ms 
T50E4 001:178.654 JLINK_IsHalted()
T50E4 001:179.014 - 0.359ms returns FALSE
T50E4 001:179.026 JLINK_HasError()
T50E4 001:180.969 JLINK_IsHalted()
T50E4 001:181.396 - 0.428ms returns FALSE
T50E4 001:181.402 JLINK_HasError()
T50E4 001:182.505 JLINK_IsHalted()
T50E4 001:182.956 - 0.450ms returns FALSE
T50E4 001:182.989 JLINK_HasError()
T50E4 001:184.506 JLINK_IsHalted()
T50E4 001:184.912 - 0.406ms returns FALSE
T50E4 001:184.918 JLINK_HasError()
T50E4 001:186.534 JLINK_IsHalted()
T50E4 001:187.038 - 0.503ms returns FALSE
T50E4 001:187.069 JLINK_HasError()
T50E4 001:189.565 JLINK_IsHalted()
T50E4 001:190.136 - 0.570ms returns FALSE
T50E4 001:190.149 JLINK_HasError()
T50E4 001:192.207 JLINK_IsHalted()
T50E4 001:192.646 - 0.440ms returns FALSE
T50E4 001:192.654 JLINK_HasError()
T50E4 001:195.166 JLINK_IsHalted()
T50E4 001:195.691 - 0.525ms returns FALSE
T50E4 001:195.697 JLINK_HasError()
T50E4 001:198.186 JLINK_IsHalted()
T50E4 001:198.742 - 0.556ms returns FALSE
T50E4 001:198.776 JLINK_HasError()
T50E4 001:201.290 JLINK_IsHalted()
T50E4 001:201.792 - 0.503ms returns FALSE
T50E4 001:201.806 JLINK_HasError()
T50E4 001:204.238 JLINK_IsHalted()
T50E4 001:204.768 - 0.530ms returns FALSE
T50E4 001:204.774 JLINK_HasError()
T50E4 001:206.832 JLINK_IsHalted()
T50E4 001:207.229 - 0.397ms returns FALSE
T50E4 001:207.241 JLINK_HasError()
T50E4 001:208.827 JLINK_IsHalted()
T50E4 001:209.434 - 0.607ms returns FALSE
T50E4 001:209.451 JLINK_HasError()
T50E4 001:211.280 JLINK_IsHalted()
T50E4 001:211.891 - 0.610ms returns FALSE
T50E4 001:211.910 JLINK_HasError()
T50E4 001:214.322 JLINK_IsHalted()
T50E4 001:214.730 - 0.408ms returns FALSE
T50E4 001:214.738 JLINK_HasError()
T50E4 001:215.820 JLINK_IsHalted()
T50E4 001:216.376 - 0.555ms returns FALSE
T50E4 001:216.405 JLINK_HasError()
T50E4 001:218.331 JLINK_IsHalted()
T50E4 001:218.826 - 0.493ms returns FALSE
T50E4 001:218.859 JLINK_HasError()
T50E4 001:220.851 JLINK_IsHalted()
T50E4 001:221.383 - 0.531ms returns FALSE
T50E4 001:221.410 JLINK_HasError()
T50E4 001:223.926 JLINK_IsHalted()
T50E4 001:230.499   CPU_ReadMem(2 bytes @ 0x20000000)
T50E4 001:230.950 - 7.022ms returns TRUE
T50E4 001:230.977 JLINK_ReadReg(R15 (PC))
T50E4 001:230.983 - 0.006ms returns 0x20000000
T50E4 001:230.989 JLINK_ClrBPEx(BPHandle = 0x00000003)
T50E4 001:230.994 - 0.005ms returns 0x00
T50E4 001:231.000 JLINK_ReadReg(R0)
T50E4 001:231.004 - 0.004ms returns 0x00000000
T50E4 001:231.877 JLINK_HasError()
T50E4 001:231.890 JLINK_WriteReg(R0, 0x00000800)
T50E4 001:231.897 - 0.006ms returns 0
T50E4 001:231.902 JLINK_WriteReg(R1, 0x00000800)
T50E4 001:231.906 - 0.004ms returns 0
T50E4 001:231.911 JLINK_WriteReg(R2, 0x000000FF)
T50E4 001:231.916 - 0.004ms returns 0
T50E4 001:231.921 JLINK_WriteReg(R3, 0x00000000)
T50E4 001:231.925 - 0.004ms returns 0
T50E4 001:231.930 JLINK_WriteReg(R4, 0x00000000)
T50E4 001:231.934 - 0.004ms returns 0
T50E4 001:231.939 JLINK_WriteReg(R5, 0x00000000)
T50E4 001:231.943 - 0.004ms returns 0
T50E4 001:231.948 JLINK_WriteReg(R6, 0x00000000)
T50E4 001:231.952 - 0.004ms returns 0
T50E4 001:231.957 JLINK_WriteReg(R7, 0x00000000)
T50E4 001:231.961 - 0.004ms returns 0
T50E4 001:231.966 JLINK_WriteReg(R8, 0x00000000)
T50E4 001:231.970 - 0.004ms returns 0
T50E4 001:231.975 JLINK_WriteReg(R9, 0x20000EF4)
T50E4 001:231.979 - 0.004ms returns 0
T50E4 001:231.984 JLINK_WriteReg(R10, 0x00000000)
T50E4 001:231.988 - 0.004ms returns 0
T50E4 001:231.993 JLINK_WriteReg(R11, 0x00000000)
T50E4 001:231.997 - 0.004ms returns 0
T50E4 001:232.002 JLINK_WriteReg(R12, 0x00000000)
T50E4 001:232.006 - 0.004ms returns 0
T50E4 001:232.011 JLINK_WriteReg(R13 (SP), 0x20002000)
T50E4 001:232.016 - 0.004ms returns 0
T50E4 001:232.021 JLINK_WriteReg(R14, 0x20000001)
T50E4 001:232.025 - 0.004ms returns 0
T50E4 001:232.030 JLINK_WriteReg(R15 (PC), 0x200000C4)
T50E4 001:232.034 - 0.004ms returns 0
T50E4 001:232.039 JLINK_WriteReg(XPSR, 0x01000000)
T50E4 001:232.043 - 0.004ms returns 0
T50E4 001:232.048 JLINK_WriteReg(MSP, 0x20002000)
T50E4 001:232.052 - 0.004ms returns 0
T50E4 001:232.057 JLINK_WriteReg(PSP, 0x20002000)
T50E4 001:232.061 - 0.004ms returns 0
T50E4 001:232.066 JLINK_WriteReg(CFBP, 0x00000000)
T50E4 001:232.070 - 0.004ms returns 0
T50E4 001:232.076 JLINK_SetBPEx(Addr = 0x20000000, Type = 0xFFFFFFF2)
T50E4 001:232.086 - 0.010ms returns 0x00000004
T50E4 001:232.093 JLINK_Go()
T50E4 001:232.104   CPU_ReadMem(4 bytes @ 0xE0001000)
T50E4 001:235.482 - 3.387ms 
T50E4 001:235.512 JLINK_IsHalted()
T50E4 001:235.966 - 0.452ms returns FALSE
T50E4 001:235.998 JLINK_HasError()
T50E4 001:238.033 JLINK_IsHalted()
T50E4 001:241.531   CPU_ReadMem(2 bytes @ 0x20000000)
T50E4 001:241.955 - 3.919ms returns TRUE
T50E4 001:241.976 JLINK_ReadReg(R15 (PC))
T50E4 001:241.982 - 0.006ms returns 0x20000000
T50E4 001:241.988 JLINK_ClrBPEx(BPHandle = 0x00000004)
T50E4 001:241.992 - 0.004ms returns 0x00
T50E4 001:241.998 JLINK_ReadReg(R0)
T50E4 001:242.003 - 0.004ms returns 0x00000001
T50E4 001:242.008 JLINK_HasError()
T50E4 001:242.014 JLINK_WriteReg(R0, 0x00000800)
T50E4 001:242.019 - 0.004ms returns 0
T50E4 001:242.024 JLINK_WriteReg(R1, 0x00000800)
T50E4 001:242.028 - 0.004ms returns 0
T50E4 001:242.033 JLINK_WriteReg(R2, 0x000000FF)
T50E4 001:242.037 - 0.004ms returns 0
T50E4 001:242.043 JLINK_WriteReg(R3, 0x00000000)
T50E4 001:242.047 - 0.004ms returns 0
T50E4 001:242.052 JLINK_WriteReg(R4, 0x00000000)
T50E4 001:242.056 - 0.004ms returns 0
T50E4 001:242.061 JLINK_WriteReg(R5, 0x00000000)
T50E4 001:242.065 - 0.004ms returns 0
T50E4 001:242.070 JLINK_WriteReg(R6, 0x00000000)
T50E4 001:242.075 - 0.004ms returns 0
T50E4 001:242.080 JLINK_WriteReg(R7, 0x00000000)
T50E4 001:242.084 - 0.004ms returns 0
T50E4 001:242.089 JLINK_WriteReg(R8, 0x00000000)
T50E4 001:242.093 - 0.004ms returns 0
T50E4 001:242.098 JLINK_WriteReg(R9, 0x20000EF4)
T50E4 001:242.102 - 0.004ms returns 0
T50E4 001:242.107 JLINK_WriteReg(R10, 0x00000000)
T50E4 001:242.111 - 0.004ms returns 0
T50E4 001:242.117 JLINK_WriteReg(R11, 0x00000000)
T50E4 001:242.121 - 0.004ms returns 0
T50E4 001:242.126 JLINK_WriteReg(R12, 0x00000000)
T50E4 001:242.130 - 0.004ms returns 0
T50E4 001:242.135 JLINK_WriteReg(R13 (SP), 0x20002000)
T50E4 001:242.139 - 0.004ms returns 0
T50E4 001:242.144 JLINK_WriteReg(R14, 0x20000001)
T50E4 001:242.149 - 0.004ms returns 0
T50E4 001:242.154 JLINK_WriteReg(R15 (PC), 0x20000208)
T50E4 001:242.158 - 0.004ms returns 0
T50E4 001:242.163 JLINK_WriteReg(XPSR, 0x01000000)
T50E4 001:242.167 - 0.004ms returns 0
T50E4 001:242.172 JLINK_WriteReg(MSP, 0x20002000)
T50E4 001:242.176 - 0.004ms returns 0
T50E4 001:242.181 JLINK_WriteReg(PSP, 0x20002000)
T50E4 001:242.185 - 0.004ms returns 0
T50E4 001:242.191 JLINK_WriteReg(CFBP, 0x00000000)
T50E4 001:242.195 - 0.004ms returns 0
T50E4 001:242.200 JLINK_SetBPEx(Addr = 0x20000000, Type = 0xFFFFFFF2)
T50E4 001:242.205 - 0.005ms returns 0x00000005
T50E4 001:242.210 JLINK_Go()
T50E4 001:242.220   CPU_ReadMem(4 bytes @ 0xE0001000)
T50E4 001:245.629 - 3.417ms 
T50E4 001:245.660 JLINK_IsHalted()
T50E4 001:246.020 - 0.359ms returns FALSE
T50E4 001:246.026 JLINK_HasError()
T50E4 001:247.138 JLINK_IsHalted()
T50E4 001:247.636 - 0.498ms returns FALSE
T50E4 001:247.654 JLINK_HasError()
T50E4 001:250.159 JLINK_IsHalted()
T50E4 001:250.601 - 0.441ms returns FALSE
T50E4 001:250.634 JLINK_HasError()
T50E4 001:252.679 JLINK_IsHalted()
T50E4 001:253.070 - 0.391ms returns FALSE
T50E4 001:253.077 JLINK_HasError()
T50E4 001:254.195 JLINK_IsHalted()
T50E4 001:254.883 - 0.686ms returns FALSE
T50E4 001:254.914 JLINK_HasError()
T50E4 001:261.283 JLINK_IsHalted()
T50E4 001:261.846 - 0.563ms returns FALSE
T50E4 001:261.862 JLINK_HasError()
T50E4 001:264.296 JLINK_IsHalted()
T50E4 001:264.761 - 0.464ms returns FALSE
T50E4 001:264.768 JLINK_HasError()
T50E4 001:266.831 JLINK_IsHalted()
T50E4 001:267.240 - 0.410ms returns FALSE
T50E4 001:267.266 JLINK_HasError()
T50E4 001:269.844 JLINK_IsHalted()
T50E4 001:270.350 - 0.506ms returns FALSE
T50E4 001:270.362 JLINK_HasError()
T50E4 001:272.945 JLINK_IsHalted()
T50E4 001:273.383 - 0.453ms returns FALSE
T50E4 001:273.399 JLINK_HasError()
T50E4 001:275.947 JLINK_IsHalted()
T50E4 001:276.442 - 0.493ms returns FALSE
T50E4 001:276.483 JLINK_HasError()
T50E4 001:278.486 JLINK_IsHalted()
T50E4 001:278.922 - 0.435ms returns FALSE
T50E4 001:278.951 JLINK_HasError()
T50E4 001:280.512 JLINK_IsHalted()
T50E4 001:281.018 - 0.504ms returns FALSE
T50E4 001:281.058 JLINK_HasError()
T50E4 001:282.534 JLINK_IsHalted()
T50E4 001:282.923 - 0.388ms returns FALSE
T50E4 001:282.951 JLINK_HasError()
T50E4 001:284.048 JLINK_IsHalted()
T50E4 001:284.434 - 0.385ms returns FALSE
T50E4 001:284.465 JLINK_HasError()
T50E4 001:285.548 JLINK_IsHalted()
T50E4 001:286.084 - 0.535ms returns FALSE
T50E4 001:286.091 JLINK_HasError()
T50E4 001:289.069 JLINK_IsHalted()
T50E4 001:289.548 - 0.479ms returns FALSE
T50E4 001:289.559 JLINK_HasError()
T50E4 001:291.092 JLINK_IsHalted()
T50E4 001:291.648 - 0.556ms returns FALSE
T50E4 001:291.655 JLINK_HasError()
T50E4 001:293.092 JLINK_IsHalted()
T50E4 001:293.574 - 0.481ms returns FALSE
T50E4 001:293.580 JLINK_HasError()
T50E4 001:296.187 JLINK_IsHalted()
T50E4 001:299.675   CPU_ReadMem(2 bytes @ 0x20000000)
T50E4 001:300.268 - 4.081ms returns TRUE
T50E4 001:300.276 JLINK_ReadReg(R15 (PC))
T50E4 001:300.282 - 0.006ms returns 0x20000000
T50E4 001:300.288 JLINK_ClrBPEx(BPHandle = 0x00000005)
T50E4 001:300.292 - 0.004ms returns 0x00
T50E4 001:300.298 JLINK_ReadReg(R0)
T50E4 001:300.302 - 0.004ms returns 0x00000000
T50E4 001:300.749 JLINK_HasError()
T50E4 001:300.760 JLINK_WriteReg(R0, 0x00001000)
T50E4 001:300.765 - 0.005ms returns 0
T50E4 001:300.770 JLINK_WriteReg(R1, 0x00000800)
T50E4 001:300.775 - 0.004ms returns 0
T50E4 001:300.780 JLINK_WriteReg(R2, 0x000000FF)
T50E4 001:300.784 - 0.004ms returns 0
T50E4 001:300.789 JLINK_WriteReg(R3, 0x00000000)
T50E4 001:300.793 - 0.004ms returns 0
T50E4 001:300.798 JLINK_WriteReg(R4, 0x00000000)
T50E4 001:300.803 - 0.004ms returns 0
T50E4 001:300.808 JLINK_WriteReg(R5, 0x00000000)
T50E4 001:300.812 - 0.004ms returns 0
T50E4 001:300.817 JLINK_WriteReg(R6, 0x00000000)
T50E4 001:300.821 - 0.004ms returns 0
T50E4 001:300.826 JLINK_WriteReg(R7, 0x00000000)
T50E4 001:300.830 - 0.004ms returns 0
T50E4 001:300.835 JLINK_WriteReg(R8, 0x00000000)
T50E4 001:300.840 - 0.004ms returns 0
T50E4 001:300.845 JLINK_WriteReg(R9, 0x20000EF4)
T50E4 001:300.849 - 0.004ms returns 0
T50E4 001:300.854 JLINK_WriteReg(R10, 0x00000000)
T50E4 001:300.858 - 0.004ms returns 0
T50E4 001:300.863 JLINK_WriteReg(R11, 0x00000000)
T50E4 001:300.867 - 0.004ms returns 0
T50E4 001:300.872 JLINK_WriteReg(R12, 0x00000000)
T50E4 001:300.877 - 0.004ms returns 0
T50E4 001:300.882 JLINK_WriteReg(R13 (SP), 0x20002000)
T50E4 001:300.887 - 0.004ms returns 0
T50E4 001:300.892 JLINK_WriteReg(R14, 0x20000001)
T50E4 001:300.896 - 0.004ms returns 0
T50E4 001:300.901 JLINK_WriteReg(R15 (PC), 0x200000C4)
T50E4 001:300.905 - 0.004ms returns 0
T50E4 001:300.910 JLINK_WriteReg(XPSR, 0x01000000)
T50E4 001:300.915 - 0.004ms returns 0
T50E4 001:300.920 JLINK_WriteReg(MSP, 0x20002000)
T50E4 001:300.924 - 0.004ms returns 0
T50E4 001:300.929 JLINK_WriteReg(PSP, 0x20002000)
T50E4 001:300.933 - 0.004ms returns 0
T50E4 001:300.938 JLINK_WriteReg(CFBP, 0x00000000)
T50E4 001:300.942 - 0.004ms returns 0
T50E4 001:300.948 JLINK_SetBPEx(Addr = 0x20000000, Type = 0xFFFFFFF2)
T50E4 001:300.953 - 0.005ms returns 0x00000006
T50E4 001:300.958 JLINK_Go()
T50E4 001:300.969   CPU_ReadMem(4 bytes @ 0xE0001000)
T50E4 001:304.984 - 4.022ms 
T50E4 001:305.015 JLINK_IsHalted()
T50E4 001:305.522 - 0.507ms returns FALSE
T50E4 001:305.529 JLINK_HasError()
T50E4 001:308.249 JLINK_IsHalted()
T50E4 001:311.929   CPU_ReadMem(2 bytes @ 0x20000000)
T50E4 001:312.442 - 4.193ms returns TRUE
T50E4 001:312.458 JLINK_ReadReg(R15 (PC))
T50E4 001:312.483 - 0.025ms returns 0x20000000
T50E4 001:312.510 JLINK_ClrBPEx(BPHandle = 0x00000006)
T50E4 001:312.524 - 0.015ms returns 0x00
T50E4 001:312.529 JLINK_ReadReg(R0)
T50E4 001:312.533 - 0.004ms returns 0x00000001
T50E4 001:312.538 JLINK_HasError()
T50E4 001:312.544 JLINK_WriteReg(R0, 0x00001000)
T50E4 001:312.549 - 0.004ms returns 0
T50E4 001:312.554 JLINK_WriteReg(R1, 0x00000800)
T50E4 001:312.558 - 0.004ms returns 0
T50E4 001:312.604 JLINK_WriteReg(R2, 0x000000FF)
T50E4 001:312.610 - 0.006ms returns 0
T50E4 001:312.615 JLINK_WriteReg(R3, 0x00000000)
T50E4 001:312.619 - 0.004ms returns 0
T50E4 001:312.624 JLINK_WriteReg(R4, 0x00000000)
T50E4 001:312.628 - 0.004ms returns 0
T50E4 001:312.633 JLINK_WriteReg(R5, 0x00000000)
T50E4 001:312.637 - 0.004ms returns 0
T50E4 001:312.642 JLINK_WriteReg(R6, 0x00000000)
T50E4 001:312.646 - 0.004ms returns 0
T50E4 001:312.651 JLINK_WriteReg(R7, 0x00000000)
T50E4 001:312.655 - 0.004ms returns 0
T50E4 001:312.660 JLINK_WriteReg(R8, 0x00000000)
T50E4 001:312.664 - 0.004ms returns 0
T50E4 001:312.669 JLINK_WriteReg(R9, 0x20000EF4)
T50E4 001:312.675 - 0.005ms returns 0
T50E4 001:312.680 JLINK_WriteReg(R10, 0x00000000)
T50E4 001:312.684 - 0.004ms returns 0
T50E4 001:312.689 JLINK_WriteReg(R11, 0x00000000)
T50E4 001:312.694 - 0.004ms returns 0
T50E4 001:312.699 JLINK_WriteReg(R12, 0x00000000)
T50E4 001:312.703 - 0.004ms returns 0
T50E4 001:312.708 JLINK_WriteReg(R13 (SP), 0x20002000)
T50E4 001:312.712 - 0.004ms returns 0
T50E4 001:312.717 JLINK_WriteReg(R14, 0x20000001)
T50E4 001:312.722 - 0.004ms returns 0
T50E4 001:312.727 JLINK_WriteReg(R15 (PC), 0x20000208)
T50E4 001:312.731 - 0.004ms returns 0
T50E4 001:312.736 JLINK_WriteReg(XPSR, 0x01000000)
T50E4 001:312.740 - 0.004ms returns 0
T50E4 001:312.745 JLINK_WriteReg(MSP, 0x20002000)
T50E4 001:312.750 - 0.004ms returns 0
T50E4 001:312.755 JLINK_WriteReg(PSP, 0x20002000)
T50E4 001:312.759 - 0.004ms returns 0
T50E4 001:312.764 JLINK_WriteReg(CFBP, 0x00000000)
T50E4 001:312.768 - 0.004ms returns 0
T50E4 001:312.774 JLINK_SetBPEx(Addr = 0x20000000, Type = 0xFFFFFFF2)
T50E4 001:312.778 - 0.005ms returns 0x00000007
T50E4 001:312.783 JLINK_Go()
T50E4 001:312.793   CPU_ReadMem(4 bytes @ 0xE0001000)
T50E4 001:316.687 - 3.903ms 
T50E4 001:316.698 JLINK_IsHalted()
T50E4 001:317.185 - 0.486ms returns FALSE
T50E4 001:317.195 JLINK_HasError()
T50E4 001:318.287 JLINK_IsHalted()
T50E4 001:318.821 - 0.535ms returns FALSE
T50E4 001:318.832 JLINK_HasError()
T50E4 001:321.305 JLINK_IsHalted()
T50E4 001:321.867 - 0.559ms returns FALSE
T50E4 001:321.885 JLINK_HasError()
T50E4 001:324.342 JLINK_IsHalted()
T50E4 001:324.897 - 0.554ms returns FALSE
T50E4 001:324.926 JLINK_HasError()
T50E4 001:326.463 JLINK_IsHalted()
T50E4 001:326.912 - 0.449ms returns FALSE
T50E4 001:326.943 JLINK_HasError()
T50E4 001:329.398 JLINK_IsHalted()
T50E4 001:329.938 - 0.540ms returns FALSE
T50E4 001:329.944 JLINK_HasError()
T50E4 001:332.519 JLINK_IsHalted()
T50E4 001:332.984 - 0.466ms returns FALSE
T50E4 001:332.991 JLINK_HasError()
T50E4 001:335.474 JLINK_IsHalted()
T50E4 001:336.108 - 0.634ms returns FALSE
T50E4 001:336.115 JLINK_HasError()
T50E4 001:337.998 JLINK_IsHalted()
T50E4 001:338.451 - 0.453ms returns FALSE
T50E4 001:338.459 JLINK_HasError()
T50E4 001:340.067 JLINK_IsHalted()
T50E4 001:340.524 - 0.455ms returns FALSE
T50E4 001:340.566 JLINK_HasError()
T50E4 001:342.129 JLINK_IsHalted()
T50E4 001:342.570 - 0.441ms returns FALSE
T50E4 001:342.577 JLINK_HasError()
T50E4 001:345.048 JLINK_IsHalted()
T50E4 001:345.566 - 0.517ms returns FALSE
T50E4 001:345.572 JLINK_HasError()
T50E4 001:348.185 JLINK_IsHalted()
T50E4 001:348.805 - 0.620ms returns FALSE
T50E4 001:348.861 JLINK_HasError()
T50E4 001:351.160 JLINK_IsHalted()
T50E4 001:351.691 - 0.531ms returns FALSE
T50E4 001:351.698 JLINK_HasError()
T50E4 001:354.186 JLINK_IsHalted()
T50E4 001:354.734 - 0.548ms returns FALSE
T50E4 001:354.741 JLINK_HasError()
T50E4 001:356.679 JLINK_IsHalted()
T50E4 001:357.173 - 0.492ms returns FALSE
T50E4 001:357.204 JLINK_HasError()
T50E4 001:359.740 JLINK_IsHalted()
T50E4 001:360.405 - 0.664ms returns FALSE
T50E4 001:360.440 JLINK_HasError()
T50E4 001:362.823 JLINK_IsHalted()
T50E4 001:363.247 - 0.425ms returns FALSE
T50E4 001:363.256 JLINK_HasError()
T50E4 001:365.904 JLINK_IsHalted()
T50E4 001:369.514   CPU_ReadMem(2 bytes @ 0x20000000)
T50E4 001:370.002 - 4.099ms returns TRUE
T50E4 001:370.015 JLINK_ReadReg(R15 (PC))
T50E4 001:370.038 - 0.022ms returns 0x20000000
T50E4 001:370.068 JLINK_ClrBPEx(BPHandle = 0x00000007)
T50E4 001:370.073 - 0.004ms returns 0x00
T50E4 001:370.078 JLINK_ReadReg(R0)
T50E4 001:370.083 - 0.004ms returns 0x00000000
T50E4 001:370.517 JLINK_HasError()
T50E4 001:370.527 JLINK_WriteReg(R0, 0x00001800)
T50E4 001:370.533 - 0.005ms returns 0
T50E4 001:370.538 JLINK_WriteReg(R1, 0x00000800)
T50E4 001:370.542 - 0.004ms returns 0
T50E4 001:370.547 JLINK_WriteReg(R2, 0x000000FF)
T50E4 001:370.552 - 0.004ms returns 0
T50E4 001:370.557 JLINK_WriteReg(R3, 0x00000000)
T50E4 001:370.561 - 0.004ms returns 0
T50E4 001:370.566 JLINK_WriteReg(R4, 0x00000000)
T50E4 001:370.570 - 0.004ms returns 0
T50E4 001:370.575 JLINK_WriteReg(R5, 0x00000000)
T50E4 001:370.579 - 0.004ms returns 0
T50E4 001:370.584 JLINK_WriteReg(R6, 0x00000000)
T50E4 001:370.588 - 0.004ms returns 0
T50E4 001:370.593 JLINK_WriteReg(R7, 0x00000000)
T50E4 001:370.597 - 0.004ms returns 0
T50E4 001:370.602 JLINK_WriteReg(R8, 0x00000000)
T50E4 001:370.606 - 0.004ms returns 0
T50E4 001:370.611 JLINK_WriteReg(R9, 0x20000EF4)
T50E4 001:370.615 - 0.004ms returns 0
T50E4 001:370.620 JLINK_WriteReg(R10, 0x00000000)
T50E4 001:370.624 - 0.004ms returns 0
T50E4 001:370.629 JLINK_WriteReg(R11, 0x00000000)
T50E4 001:370.633 - 0.004ms returns 0
T50E4 001:370.638 JLINK_WriteReg(R12, 0x00000000)
T50E4 001:370.642 - 0.004ms returns 0
T50E4 001:370.647 JLINK_WriteReg(R13 (SP), 0x20002000)
T50E4 001:370.652 - 0.004ms returns 0
T50E4 001:370.657 JLINK_WriteReg(R14, 0x20000001)
T50E4 001:370.661 - 0.004ms returns 0
T50E4 001:370.666 JLINK_WriteReg(R15 (PC), 0x200000C4)
T50E4 001:370.670 - 0.004ms returns 0
T50E4 001:370.675 JLINK_WriteReg(XPSR, 0x01000000)
T50E4 001:370.679 - 0.004ms returns 0
T50E4 001:370.684 JLINK_WriteReg(MSP, 0x20002000)
T50E4 001:370.689 - 0.004ms returns 0
T50E4 001:370.693 JLINK_WriteReg(PSP, 0x20002000)
T50E4 001:370.698 - 0.004ms returns 0
T50E4 001:370.703 JLINK_WriteReg(CFBP, 0x00000000)
T50E4 001:370.707 - 0.004ms returns 0
T50E4 001:370.712 JLINK_SetBPEx(Addr = 0x20000000, Type = 0xFFFFFFF2)
T50E4 001:370.718 - 0.005ms returns 0x00000008
T50E4 001:370.723 JLINK_Go()
T50E4 001:370.733   CPU_ReadMem(4 bytes @ 0xE0001000)
T50E4 001:374.555 - 3.832ms 
T50E4 001:374.566 JLINK_IsHalted()
T50E4 001:374.960 - 0.391ms returns FALSE
T50E4 001:374.978 JLINK_HasError()
T50E4 001:376.406 JLINK_IsHalted()
T50E4 001:380.059   CPU_ReadMem(2 bytes @ 0x20000000)
T50E4 001:380.851 - 4.445ms returns TRUE
T50E4 001:380.870 JLINK_ReadReg(R15 (PC))
T50E4 001:380.878 - 0.007ms returns 0x20000000
T50E4 001:380.884 JLINK_ClrBPEx(BPHandle = 0x00000008)
T50E4 001:380.889 - 0.005ms returns 0x00
T50E4 001:380.895 JLINK_ReadReg(R0)
T50E4 001:380.900 - 0.004ms returns 0x00000001
T50E4 001:380.906 JLINK_HasError()
T50E4 001:380.912 JLINK_WriteReg(R0, 0x00001800)
T50E4 001:380.917 - 0.005ms returns 0
T50E4 001:380.923 JLINK_WriteReg(R1, 0x00000800)
T50E4 001:380.927 - 0.004ms returns 0
T50E4 001:380.933 JLINK_WriteReg(R2, 0x000000FF)
T50E4 001:380.937 - 0.004ms returns 0
T50E4 001:380.942 JLINK_WriteReg(R3, 0x00000000)
T50E4 001:380.947 - 0.004ms returns 0
T50E4 001:380.953 JLINK_WriteReg(R4, 0x00000000)
T50E4 001:380.957 - 0.004ms returns 0
T50E4 001:380.962 JLINK_WriteReg(R5, 0x00000000)
T50E4 001:380.967 - 0.004ms returns 0
T50E4 001:380.972 JLINK_WriteReg(R6, 0x00000000)
T50E4 001:380.977 - 0.004ms returns 0
T50E4 001:380.982 JLINK_WriteReg(R7, 0x00000000)
T50E4 001:380.987 - 0.004ms returns 0
T50E4 001:380.992 JLINK_WriteReg(R8, 0x00000000)
T50E4 001:380.996 - 0.004ms returns 0
T50E4 001:381.001 JLINK_WriteReg(R9, 0x20000EF4)
T50E4 001:381.005 - 0.004ms returns 0
T50E4 001:381.010 JLINK_WriteReg(R10, 0x00000000)
T50E4 001:381.014 - 0.004ms returns 0
T50E4 001:381.020 JLINK_WriteReg(R11, 0x00000000)
T50E4 001:381.024 - 0.004ms returns 0
T50E4 001:381.029 JLINK_WriteReg(R12, 0x00000000)
T50E4 001:381.033 - 0.004ms returns 0
T50E4 001:381.038 JLINK_WriteReg(R13 (SP), 0x20002000)
T50E4 001:381.043 - 0.004ms returns 0
T50E4 001:381.054 JLINK_WriteReg(R14, 0x20000001)
T50E4 001:381.058 - 0.004ms returns 0
T50E4 001:381.063 JLINK_WriteReg(R15 (PC), 0x20000208)
T50E4 001:381.067 - 0.004ms returns 0
T50E4 001:381.073 JLINK_WriteReg(XPSR, 0x01000000)
T50E4 001:381.077 - 0.004ms returns 0
T50E4 001:381.082 JLINK_WriteReg(MSP, 0x20002000)
T50E4 001:381.086 - 0.004ms returns 0
T50E4 001:381.091 JLINK_WriteReg(PSP, 0x20002000)
T50E4 001:381.096 - 0.004ms returns 0
T50E4 001:381.101 JLINK_WriteReg(CFBP, 0x00000000)
T50E4 001:381.105 - 0.004ms returns 0
T50E4 001:381.110 JLINK_SetBPEx(Addr = 0x20000000, Type = 0xFFFFFFF2)
T50E4 001:381.115 - 0.005ms returns 0x00000009
T50E4 001:381.121 JLINK_Go()
T50E4 001:381.131   CPU_ReadMem(4 bytes @ 0xE0001000)
T50E4 001:384.943 - 3.821ms 
T50E4 001:384.957 JLINK_IsHalted()
T50E4 001:385.417 - 0.459ms returns FALSE
T50E4 001:385.450 JLINK_HasError()
T50E4 001:386.793 JLINK_IsHalted()
T50E4 001:387.186 - 0.393ms returns FALSE
T50E4 001:387.216 JLINK_HasError()
T50E4 001:388.831 JLINK_IsHalted()
T50E4 001:389.234 - 0.403ms returns FALSE
T50E4 001:389.242 JLINK_HasError()
T50E4 001:390.354 JLINK_IsHalted()
T50E4 001:390.787 - 0.433ms returns FALSE
T50E4 001:390.796 JLINK_HasError()
T50E4 001:391.864 JLINK_IsHalted()
T50E4 001:392.364 - 0.499ms returns FALSE
T50E4 001:392.394 JLINK_HasError()
T50E4 001:394.895 JLINK_IsHalted()
T50E4 001:395.387 - 0.492ms returns FALSE
T50E4 001:395.422 JLINK_HasError()
T50E4 001:398.015 JLINK_IsHalted()
T50E4 001:398.419 - 0.403ms returns FALSE
T50E4 001:398.465 JLINK_HasError()
T50E4 001:401.096 JLINK_IsHalted()
T50E4 001:401.552 - 0.456ms returns FALSE
T50E4 001:401.567 JLINK_HasError()
T50E4 001:404.016 JLINK_IsHalted()
T50E4 001:404.522 - 0.506ms returns FALSE
T50E4 001:404.529 JLINK_HasError()
T50E4 001:406.532 JLINK_IsHalted()
T50E4 001:407.045 - 0.512ms returns FALSE
T50E4 001:407.052 JLINK_HasError()
T50E4 001:409.555 JLINK_IsHalted()
T50E4 001:410.046 - 0.490ms returns FALSE
T50E4 001:410.054 JLINK_HasError()
T50E4 001:412.659 JLINK_IsHalted()
T50E4 001:413.117 - 0.457ms returns FALSE
T50E4 001:413.150 JLINK_HasError()
T50E4 001:414.642 JLINK_IsHalted()
T50E4 001:415.154 - 0.511ms returns FALSE
T50E4 001:415.160 JLINK_HasError()
T50E4 001:416.670 JLINK_IsHalted()
T50E4 001:417.196 - 0.526ms returns FALSE
T50E4 001:417.202 JLINK_HasError()
T50E4 001:419.779 JLINK_IsHalted()
T50E4 001:420.199 - 0.419ms returns FALSE
T50E4 001:420.226 JLINK_HasError()
T50E4 001:422.837 JLINK_IsHalted()
T50E4 001:423.219 - 0.382ms returns FALSE
T50E4 001:423.227 JLINK_HasError()
T50E4 001:425.762 JLINK_IsHalted()
T50E4 001:426.197 - 0.433ms returns FALSE
T50E4 001:426.223 JLINK_HasError()
T50E4 001:428.260 JLINK_IsHalted()
T50E4 001:428.674 - 0.414ms returns FALSE
T50E4 001:428.682 JLINK_HasError()
T50E4 001:430.351 JLINK_IsHalted()
T50E4 001:430.768 - 0.415ms returns FALSE
T50E4 001:430.798 JLINK_HasError()
T50E4 001:431.945 JLINK_IsHalted()
T50E4 001:432.396 - 0.451ms returns FALSE
T50E4 001:432.408 JLINK_HasError()
T50E4 001:434.867 JLINK_IsHalted()
T50E4 001:438.224   CPU_ReadMem(2 bytes @ 0x20000000)
T50E4 001:438.713 - 3.843ms returns TRUE
T50E4 001:438.732 JLINK_ReadReg(R15 (PC))
T50E4 001:438.738 - 0.006ms returns 0x20000000
T50E4 001:438.744 JLINK_ClrBPEx(BPHandle = 0x00000009)
T50E4 001:438.748 - 0.004ms returns 0x00
T50E4 001:438.754 JLINK_ReadReg(R0)
T50E4 001:438.758 - 0.004ms returns 0x00000000
T50E4 001:439.198 JLINK_HasError()
T50E4 001:439.208 JLINK_WriteReg(R0, 0x00002000)
T50E4 001:439.213 - 0.005ms returns 0
T50E4 001:439.218 JLINK_WriteReg(R1, 0x00000800)
T50E4 001:439.223 - 0.004ms returns 0
T50E4 001:439.228 JLINK_WriteReg(R2, 0x000000FF)
T50E4 001:439.232 - 0.004ms returns 0
T50E4 001:439.237 JLINK_WriteReg(R3, 0x00000000)
T50E4 001:439.242 - 0.004ms returns 0
T50E4 001:439.247 JLINK_WriteReg(R4, 0x00000000)
T50E4 001:439.251 - 0.004ms returns 0
T50E4 001:439.256 JLINK_WriteReg(R5, 0x00000000)
T50E4 001:439.260 - 0.004ms returns 0
T50E4 001:439.265 JLINK_WriteReg(R6, 0x00000000)
T50E4 001:439.277 - 0.011ms returns 0
T50E4 001:439.282 JLINK_WriteReg(R7, 0x00000000)
T50E4 001:439.286 - 0.004ms returns 0
T50E4 001:439.291 JLINK_WriteReg(R8, 0x00000000)
T50E4 001:439.295 - 0.004ms returns 0
T50E4 001:439.301 JLINK_WriteReg(R9, 0x20000EF4)
T50E4 001:439.305 - 0.004ms returns 0
T50E4 001:439.310 JLINK_WriteReg(R10, 0x00000000)
T50E4 001:439.314 - 0.004ms returns 0
T50E4 001:439.319 JLINK_WriteReg(R11, 0x00000000)
T50E4 001:439.324 - 0.004ms returns 0
T50E4 001:439.329 JLINK_WriteReg(R12, 0x00000000)
T50E4 001:439.333 - 0.004ms returns 0
T50E4 001:439.338 JLINK_WriteReg(R13 (SP), 0x20002000)
T50E4 001:439.343 - 0.004ms returns 0
T50E4 001:439.348 JLINK_WriteReg(R14, 0x20000001)
T50E4 001:439.352 - 0.004ms returns 0
T50E4 001:439.357 JLINK_WriteReg(R15 (PC), 0x200000C4)
T50E4 001:439.362 - 0.004ms returns 0
T50E4 001:439.367 JLINK_WriteReg(XPSR, 0x01000000)
T50E4 001:439.371 - 0.004ms returns 0
T50E4 001:439.376 JLINK_WriteReg(MSP, 0x20002000)
T50E4 001:439.380 - 0.004ms returns 0
T50E4 001:439.385 JLINK_WriteReg(PSP, 0x20002000)
T50E4 001:439.390 - 0.004ms returns 0
T50E4 001:439.395 JLINK_WriteReg(CFBP, 0x00000000)
T50E4 001:439.399 - 0.004ms returns 0
T50E4 001:439.405 JLINK_SetBPEx(Addr = 0x20000000, Type = 0xFFFFFFF2)
T50E4 001:439.410 - 0.005ms returns 0x0000000A
T50E4 001:439.415 JLINK_Go()
T50E4 001:439.426   CPU_ReadMem(4 bytes @ 0xE0001000)
T50E4 001:442.894 - 3.476ms 
T50E4 001:442.925 JLINK_IsHalted()
T50E4 001:443.364 - 0.438ms returns FALSE
T50E4 001:443.370 JLINK_HasError()
T50E4 001:444.468 JLINK_IsHalted()
T50E4 001:447.958   CPU_ReadMem(2 bytes @ 0x20000000)
T50E4 001:448.404 - 3.935ms returns TRUE
T50E4 001:448.415 JLINK_ReadReg(R15 (PC))
T50E4 001:448.425 - 0.009ms returns 0x20000000
T50E4 001:448.452 JLINK_ClrBPEx(BPHandle = 0x0000000A)
T50E4 001:448.474 - 0.022ms returns 0x00
T50E4 001:448.490 JLINK_ReadReg(R0)
T50E4 001:448.495 - 0.004ms returns 0x00000001
T50E4 001:448.559 JLINK_HasError()
T50E4 001:448.565 JLINK_WriteReg(R0, 0x00002000)
T50E4 001:448.570 - 0.005ms returns 0
T50E4 001:448.575 JLINK_WriteReg(R1, 0x00000800)
T50E4 001:448.579 - 0.004ms returns 0
T50E4 001:448.584 JLINK_WriteReg(R2, 0x000000FF)
T50E4 001:448.589 - 0.004ms returns 0
T50E4 001:448.594 JLINK_WriteReg(R3, 0x00000000)
T50E4 001:448.598 - 0.004ms returns 0
T50E4 001:448.603 JLINK_WriteReg(R4, 0x00000000)
T50E4 001:448.607 - 0.004ms returns 0
T50E4 001:448.612 JLINK_WriteReg(R5, 0x00000000)
T50E4 001:448.616 - 0.004ms returns 0
T50E4 001:448.622 JLINK_WriteReg(R6, 0x00000000)
T50E4 001:448.626 - 0.004ms returns 0
T50E4 001:448.631 JLINK_WriteReg(R7, 0x00000000)
T50E4 001:448.635 - 0.004ms returns 0
T50E4 001:448.640 JLINK_WriteReg(R8, 0x00000000)
T50E4 001:448.644 - 0.004ms returns 0
T50E4 001:448.649 JLINK_WriteReg(R9, 0x20000EF4)
T50E4 001:448.653 - 0.004ms returns 0
T50E4 001:448.658 JLINK_WriteReg(R10, 0x00000000)
T50E4 001:448.663 - 0.004ms returns 0
T50E4 001:448.668 JLINK_WriteReg(R11, 0x00000000)
T50E4 001:448.672 - 0.004ms returns 0
T50E4 001:448.677 JLINK_WriteReg(R12, 0x00000000)
T50E4 001:448.681 - 0.004ms returns 0
T50E4 001:448.687 JLINK_WriteReg(R13 (SP), 0x20002000)
T50E4 001:448.691 - 0.004ms returns 0
T50E4 001:448.696 JLINK_WriteReg(R14, 0x20000001)
T50E4 001:448.700 - 0.004ms returns 0
T50E4 001:448.705 JLINK_WriteReg(R15 (PC), 0x20000208)
T50E4 001:448.709 - 0.004ms returns 0
T50E4 001:448.715 JLINK_WriteReg(XPSR, 0x01000000)
T50E4 001:448.719 - 0.004ms returns 0
T50E4 001:448.724 JLINK_WriteReg(MSP, 0x20002000)
T50E4 001:448.728 - 0.004ms returns 0
T50E4 001:448.733 JLINK_WriteReg(PSP, 0x20002000)
T50E4 001:448.737 - 0.004ms returns 0
T50E4 001:448.743 JLINK_WriteReg(CFBP, 0x00000000)
T50E4 001:448.747 - 0.004ms returns 0
T50E4 001:448.752 JLINK_SetBPEx(Addr = 0x20000000, Type = 0xFFFFFFF2)
T50E4 001:448.757 - 0.005ms returns 0x0000000B
T50E4 001:448.762 JLINK_Go()
T50E4 001:448.771   CPU_ReadMem(4 bytes @ 0xE0001000)
T50E4 001:452.386 - 3.624ms 
T50E4 001:452.393 JLINK_IsHalted()
T50E4 001:452.832 - 0.438ms returns FALSE
T50E4 001:452.839 JLINK_HasError()
T50E4 001:454.110 JLINK_IsHalted()
T50E4 001:454.538 - 0.429ms returns FALSE
T50E4 001:454.547 JLINK_HasError()
T50E4 001:456.603 JLINK_IsHalted()
T50E4 001:457.025 - 0.420ms returns FALSE
T50E4 001:457.055 JLINK_HasError()
T50E4 001:458.111 JLINK_IsHalted()
T50E4 001:458.646 - 0.535ms returns FALSE
T50E4 001:458.653 JLINK_HasError()
T50E4 001:461.178 JLINK_IsHalted()
T50E4 001:461.691 - 0.512ms returns FALSE
T50E4 001:461.715 JLINK_HasError()
T50E4 001:464.237 JLINK_IsHalted()
T50E4 001:464.673 - 0.436ms returns FALSE
T50E4 001:464.704 JLINK_HasError()
T50E4 001:466.737 JLINK_IsHalted()
T50E4 001:467.085 - 0.348ms returns FALSE
T50E4 001:467.094 JLINK_HasError()
T50E4 001:468.500 JLINK_IsHalted()
T50E4 001:468.920 - 0.417ms returns FALSE
T50E4 001:468.947 JLINK_HasError()
T50E4 001:470.028 JLINK_IsHalted()
T50E4 001:470.446 - 0.418ms returns FALSE
T50E4 001:470.452 JLINK_HasError()
T50E4 001:472.622 JLINK_IsHalted()
T50E4 001:473.010 - 0.389ms returns FALSE
T50E4 001:473.016 JLINK_HasError()
T50E4 001:475.581 JLINK_IsHalted()
T50E4 001:476.161 - 0.580ms returns FALSE
T50E4 001:476.168 JLINK_HasError()
T50E4 001:478.588 JLINK_IsHalted()
T50E4 001:479.084 - 0.495ms returns FALSE
T50E4 001:479.090 JLINK_HasError()
T50E4 001:481.110 JLINK_IsHalted()
T50E4 001:481.668 - 0.558ms returns FALSE
T50E4 001:481.702 JLINK_HasError()
T50E4 001:484.137 JLINK_IsHalted()
T50E4 001:484.647 - 0.510ms returns FALSE
T50E4 001:484.654 JLINK_HasError()
T50E4 001:486.159 JLINK_IsHalted()
T50E4 001:486.646 - 0.487ms returns FALSE
T50E4 001:486.652 JLINK_HasError()
T50E4 001:488.173 JLINK_IsHalted()
T50E4 001:488.672 - 0.499ms returns FALSE
T50E4 001:488.679 JLINK_HasError()
T50E4 001:490.705 JLINK_IsHalted()
T50E4 001:491.291 - 0.586ms returns FALSE
T50E4 001:491.299 JLINK_HasError()
